!url:https://github.com/lafefspietz/vna-control
!switchstate:o
!power:HIGH
!datetime:2025-12-10 09:49:25
!ifbw:100
! Created with skrf 1.9.0 (http://scikit-rf.org).
# Hz S RI R 50.0 
!freq ReS11 ImS11 ReS21 ImS21 ReS12 ImS12 ReS22 ImS22
100000000.0 0.3428456 0.921934 1.400642e-05 -1.795978e-05 4.026544e-06 -3.32464e-05 0.9974546 0.01514034
109909909.91 0.5129195 0.8142807 1.232388e-05 1.359597e-05 -5.615356e-06 1.557774e-05 0.9967272 -0.02114915
119819819.82 0.6554459 0.6744639 -5.595168e-06 -2.374619e-06 6.161694e-06 9.460417e-06 0.9950047 -0.05532947
129729729.73 0.7629399 0.5109454 2.172497e-05 -1.854449e-06 1.473912e-05 5.421437e-06 0.9926336 -0.08722962
139639639.64 0.8311068 0.3316713 1.090244e-05 -1.042706e-05 -4.836837e-06 -7.410675e-07 0.9897472 -0.1167881
149549549.55 0.8607724 0.1464598 2.721691e-07 4.59307e-06 -2.190793e-05 -8.129272e-07 0.9850689 -0.1452534
159459459.459 0.8471134 -0.03629612 -1.769875e-05 3.564274e-06 -2.029666e-05 -3.548726e-06 0.9820715 -0.1728977
169369369.369 0.798867 -0.2071246 8.856779e-06 1.268801e-06 1.609713e-06 6.950079e-06 0.9769631 -0.1986916
179279279.279 0.7182939 -0.3607 -1.590737e-05 5.417945e-06 -2.998469e-05 -4.077323e-06 0.9715445 -0.2237852
189189189.189 0.6111875 -0.489686 -1.787414e-05 -2.640715e-05 1.500177e-05 -1.975716e-05 0.9713082 -0.2233323
199099099.099 0.4832274 -0.5920154 2.164445e-05 -4.036049e-06 -2.078878e-05 2.09823e-05 0.9600658 -0.2707219
209009009.009 0.3430308 -0.6655884 1.319366e-06 6.035182e-06 -5.294507e-06 -2.049531e-05 0.9536737 -0.2934896
218918918.919 0.1940954 -0.7072576 -2.425467e-05 2.655852e-06 5.494681e-06 1.475757e-05 0.9469675 -0.3157933
228828828.829 0.04437781 -0.7187353 3.171604e-06 -9.397189e-06 -8.972482e-06 7.498036e-06 0.9396595 -0.3371489
238738738.739 -0.1014204 -0.7001075 -1.560484e-05 1.462659e-06 3.811218e-06 -1.027622e-05 0.9324529 -0.3579383
248648648.649 -0.2368223 -0.6553137 -1.988237e-05 -2.260213e-05 -1.476633e-05 9.336857e-06 0.9243242 -0.3786939
258558558.559 -0.3587065 -0.5877886 -1.119787e-05 5.543784e-06 4.724652e-06 7.863378e-07 0.9161466 -0.3990233
268468468.468 -0.4638683 -0.498756 -3.81585e-06 1.429332e-06 4.754011e-06 1.408263e-06 0.907366 -0.4189188
278378378.378 -0.5471006 -0.3941424 -8.197379e-06 2.134072e-06 -7.921766e-06 1.772221e-05 0.8982934 -0.4381888
288288288.288 -0.6089689 -0.2750132 -8.01507e-06 -2.412346e-05 2.516613e-06 -4.051709e-06 0.8896212 -0.4568124
298198198.198 -0.644628 -0.1502707 8.689439e-06 7.890424e-06 1.633144e-05 -4.793906e-06 0.879685 -0.47555
308108108.108 -0.655277 -0.01737867 -1.28768e-05 7.505217e-06 -2.745061e-06 -1.671905e-05 0.8698434 -0.4940702
318018018.018 -0.6384078 0.1109441 -1.62781e-05 -2.72478e-06 6.569337e-06 1.134248e-06 0.8598217 -0.5124257
327927927.928 -0.5852045 0.234883 9.756199e-06 1.120983e-05 2.237756e-06 4.199811e-06 0.8487423 -0.5300112
337837837.838 -0.5133399 0.3212509 -1.992706e-05 2.741668e-05 -9.027417e-06 3.400084e-06 0.8374133 -0.5473043
347747747.748 -0.4472177 0.3960512 9.016199e-06 9.359856e-06 -1.483328e-05 2.350189e-05 0.8253531 -0.5643185
357657657.658 -0.3615064 0.469216 9.111719e-06 1.491087e-05 -1.131093e-05 -1.287026e-05 0.7929122 -0.612556
367567567.568 -0.2647651 0.5223018 8.778118e-06 8.278033e-07 -1.332205e-05 1.156075e-05 0.7046377 -0.7176124
377477477.477 -0.158092 0.5522121 -1.743305e-05 4.800511e-06 -2.318101e-06 9.760099e-06 0.8164722 -0.5747147
387387387.387 -0.04331644 0.5604281 -9.523524e-06 7.552054e-06 -6.3266e-06 3.268493e-06 0.7763093 -0.6292989
397297297.297 0.0663714 0.5447075 -8.895079e-06 1.477277e-05 6.330692e-06 -1.376265e-05 0.7634648 -0.6457484
407207207.207 0.1659679 0.5068862 3.469981e-06 6.962706e-06 -1.500979e-06 -6.975439e-06 0.749059 -0.6608849
417117117.117 0.2571171 0.4482648 -5.791935e-06 1.879324e-05 -1.212459e-06 -1.336639e-05 0.7359288 -0.6750687
427027027.027 0.3346311 0.3713987 1.346286e-05 4.996327e-06 -3.457541e-06 3.190299e-06 0.7209213 -0.6904224
436936936.937 0.3925095 0.2828425 1.201994e-05 -1.524028e-06 5.701332e-06 8.040051e-06 0.7054906 -0.705993
446846846.847 0.4276598 0.1870039 2.485054e-05 7.456827e-06 6.637371e-06 1.299087e-05 0.6897969 -0.7210675
456756756.757 0.4426617 0.08726202 3.652662e-05 -1.467657e-05 2.896404e-06 -6.128136e-06 0.6746776 -0.733669
466666666.667 0.4361605 -0.01637453 1.201895e-05 -1.593882e-05 -1.023399e-05 -2.571509e-06 0.6598545 -0.7471261
476576576.577 0.4072213 -0.1163322 1.124239e-05 -6.100322e-06 3.851285e-06 -9.672626e-06 0.6435328 -0.7596914
486486486.486 0.3591958 -0.2042332 1.200783e-05 -4.855285e-06 3.947349e-06 1.401411e-05 0.6273077 -0.7725034
496396396.396 0.2953195 -0.278762 2.801759e-05 3.068168e-05 -1.634899e-06 8.998309e-06 0.6110374 -0.7860827
506306306.306 0.2194735 -0.3378429 3.308287e-05 6.488863e-06 4.033533e-05 -6.263783e-06 0.5927358 -0.7986482
516216216.216 0.1304844 -0.3812714 3.867902e-06 9.20891e-06 2.372366e-06 1.53702e-05 0.5761183 -0.80968
526126126.126 0.03543816 -0.4092992 -5.873749e-06 -1.923186e-05 1.429915e-05 -6.339501e-06 0.5603236 -0.8199049
536036036.036 -0.06833293 -0.4186981 3.609981e-06 -2.705202e-06 1.676763e-05 1.403664e-05 0.5430712 -0.831486
545945945.946 -0.1745073 -0.4046109 6.903718e-06 1.16399e-05 -6.254474e-06 -2.64114e-07 0.5239967 -0.8435035
555855855.856 -0.2769428 -0.3662558 2.130712e-05 2.475029e-05 -2.651349e-05 -1.423406e-05 0.5056899 -0.8543218
565765765.766 -0.3694121 -0.305235 -1.380813e-06 9.837228e-06 -1.823541e-05 1.439705e-05 0.4884058 -0.8638859
575675675.676 -0.4459023 -0.2252281 -3.095564e-05 2.761292e-06 1.257513e-06 -1.028644e-05 0.4700547 -0.873286
585585585.586 -0.5068032 -0.1257371 1.086777e-05 1.615888e-05 1.130493e-05 7.211192e-06 0.4508628 -0.8839612
595495495.495 -0.5444913 -0.0142371 1.313458e-05 8.367673e-06 -1.124255e-05 -1.859955e-05 0.4303121 -0.8933992
605405405.405 -0.5570767 0.1040668 -6.809817e-06 2.523829e-05 -1.518922e-05 4.325243e-06 0.4105722 -0.9023672
615315315.315 -0.5426829 0.2267963 -1.37642e-05 9.020151e-06 -1.229312e-05 -1.799228e-05 0.3894757 -0.9090403
625225225.225 -0.5039765 0.3407549 -6.251571e-07 4.050132e-05 1.689625e-05 1.652499e-05 0.3701841 -0.9154559
635135135.135 -0.4387769 0.4451784 1.351686e-05 6.069869e-06 1.642263e-05 1.370253e-05 0.3498228 -0.9185386
645045045.045 -0.3521758 0.5337755 -1.388164e-05 9.235255e-06 -1.139784e-05 -1.944086e-05 0.3338295 -0.9203095
654954954.955 -0.251736 0.6008148 -1.022799e-05 3.272135e-05 -7.976583e-06 3.203795e-05 0.3213541 -0.9245624
664864864.865 -0.1416249 0.6466153 -4.156203e-06 1.583918e-05 7.899322e-06 -1.375954e-05 0.3076538 -0.9325488
674774774.775 -0.01693621 0.6689654 1.461091e-05 2.169541e-05 5.710419e-06 8.316088e-06 0.2903853 -0.9425361
684684684.685 0.1078111 0.6650308 8.25085e-07 -5.276704e-06 1.597907e-05 -2.425724e-06 0.2715326 -0.9516459
694594594.595 0.228627 0.6352231 1.760669e-05 -6.112669e-06 1.5768e-05 1.509679e-05 0.2519971 -0.9593222
704504504.505 0.3399639 0.5807221 -5.266957e-06 -2.023072e-05 -2.334446e-05 -1.908739e-05 0.2317189 -0.9668378
714414414.414 0.437832 0.5042519 3.624819e-06 -1.242716e-05 4.323475e-07 5.012687e-06 0.2107011 -0.9723596
724324324.324 0.5145493 0.4142342 1.554065e-05 1.956535e-05 3.600492e-05 -8.516239e-06 0.1910422 -0.9776549
734234234.234 0.5686092 0.3180006 2.258715e-05 5.210999e-06 1.722516e-05 7.958183e-06 0.1717206 -0.9815903
744144144.144 0.6046667 0.2160663 1.991955e-05 -2.00367e-05 -2.691201e-06 -9.736995e-06 0.04667667 -0.9950292
754054054.054 0.626541 0.1120701 3.773508e-06 8.002312e-07 3.752553e-06 2.29825e-06 0.2232958 -0.9714977
763963963.964 0.6353138 0.007545447 -1.012192e-05 9.794418e-06 3.626142e-06 1.808565e-05 0.1110297 -0.9905795
773873873.874 0.6321211 -0.09962258 3.86514e-06 1.378175e-05 1.271079e-05 5.148258e-06 0.08962952 -0.9919615
783783783.784 0.6098267 -0.2122395 1.003866e-05 2.664638e-05 -1.223878e-05 -5.912614e-07 0.0683747 -0.9934599
793693693.694 0.5627121 -0.3304116 -1.063768e-05 -1.615062e-05 -1.091148e-05 -8.395355e-06 0.04726527 -0.9938861
803603603.604 0.4890615 -0.4412724 -1.837412e-05 2.815552e-06 -9.879714e-06 -9.754625e-06 0.02543717 -0.9938011
813513513.514 0.3940819 -0.5383964 -1.453313e-05 2.274441e-05 -2.141513e-06 -3.373064e-05 0.004174042 -0.9930761
823423423.423 0.2765475 -0.6166012 -1.1273e-06 1.899687e-05 6.742463e-07 -1.949188e-05 -0.01653913 -0.9915278
833333333.333 0.1395147 -0.6719525 2.799582e-06 -1.792105e-05 3.511892e-07 4.815729e-06 -0.03675147 -0.9896322
843243243.243 -0.01158494 -0.6983069 -6.443322e-06 -1.117179e-05 2.568166e-07 -4.92716e-06 -0.05739219 -0.9862331
853153153.153 -0.1745287 -0.6909193 1.064264e-05 -1.873229e-05 2.54277e-05 3.004635e-05 -0.07787061 -0.9820736
863063063.063 -0.3371667 -0.6447218 1.751437e-06 -2.311912e-05 1.135713e-05 -1.746775e-06 -0.09789719 -0.9775532
872972972.973 -0.4835789 -0.5652079 -2.318315e-05 3.920958e-05 -2.045284e-05 -2.163288e-05 -0.1181588 -0.9715117
882882882.883 -0.6135479 -0.4515646 -2.577829e-05 -1.863074e-06 1.415298e-05 9.036086e-06 -0.1382014 -0.9646948
892792792.793 -0.7183731 -0.3041732 -2.526043e-05 8.155487e-06 -1.077048e-05 1.301347e-05 -0.1576468 -0.9575974
902702702.703 -0.786615 -0.1296746 -5.087163e-07 4.098778e-06 -7.265744e-06 -1.625626e-05 -0.1760822 -0.9488238
912612612.613 -0.8101126 0.05729378 -5.647479e-06 2.508853e-05 -1.875573e-05 -7.402447e-06 -0.1944236 -0.9384211
922522522.523 -0.7875763 0.2437574 -2.65367e-06 7.955537e-06 5.195689e-06 2.215721e-05 -0.2119558 -0.9281452
932432432.432 -0.7213786 0.4174663 -2.862697e-05 1.116537e-06 -5.09042e-06 1.818449e-06 -0.2281143 -0.9160302
942342342.342 -0.6202196 0.5644729 -2.585105e-05 -5.265618e-06 -8.593504e-06 -1.428641e-05 -0.2415692 -0.9043438
952252252.252 -0.4963832 0.6786308 7.979467e-08 2.255784e-05 2.189899e-05 2.335404e-06 -0.2531858 -0.8921756
962162162.162 -0.3513874 0.7646455 -3.038877e-05 1.413576e-05 8.785528e-06 -7.97801e-06 -0.2638437 -0.8816491
972072072.072 -0.1903704 0.8208469 3.498612e-07 -6.06147e-06 -2.1475e-06 1.204172e-05 -0.2725194 -0.8711205
981981981.982 -0.02964797 0.8440602 -3.434025e-06 2.439331e-06 2.320272e-06 -7.614769e-06 -0.2792991 -0.8649548
991891891.892 0.1259729 0.8377875 6.522895e-06 2.002742e-05 5.484347e-06 -1.951594e-06 -0.2862246 -0.8576409
1001801801.8 0.2772076 0.8038331 -2.240993e-05 9.721794e-06 1.259388e-06 5.58712e-06 -0.2938888 -0.8544236
1011711711.71 0.4192297 0.7429014 1.915821e-05 -6.128388e-06 1.437298e-05 1.499107e-06 -0.3027502 -0.8532036
1021621621.62 0.5468774 0.6556359 -1.17539e-05 2.309863e-06 5.645091e-06 2.08646e-07 -0.3117338 -0.8523929
1031531531.53 0.655713 0.5463786 4.655979e-06 7.581192e-06 -3.101625e-06 2.182913e-06 -0.322896 -0.8530914
1041441441.44 0.7416769 0.4176183 4.182855e-06 -1.186626e-05 1.738794e-07 8.584116e-06 -0.3360746 -0.8530978
1051351351.35 0.8016112 0.2719713 -8.43485e-06 2.945312e-06 2.292771e-05 1.641274e-05 -0.351353 -0.8524257
1061261261.26 0.8330405 0.1158974 3.924932e-06 9.112001e-07 1.258995e-05 1.220064e-06 -0.368757 -0.8504888
1071171171.17 0.8317456 -0.04567867 -1.020339e-05 -7.876161e-06 -1.764762e-06 -1.725854e-05 -0.3863627 -0.8491496
1081081081.08 0.7999059 -0.2022177 -1.86261e-05 -8.99187e-06 8.906955e-06 2.93479e-07 -0.4044863 -0.8446242
1090990990.99 0.740742 -0.342638 -3.554666e-06 -2.256787e-06 3.378829e-05 -8.459821e-06 -0.4234314 -0.8407212
1100900900.9 0.6551979 -0.4712652 5.263032e-06 -6.765682e-06 2.488874e-05 -1.674634e-05 -0.4420312 -0.8352711
1110810810.81 0.5429977 -0.5854197 1.823265e-05 -1.281074e-05 -6.370469e-06 -7.862729e-06 -0.4603153 -0.8297718
1120720720.72 0.40591 -0.676063 1.486838e-05 1.070868e-05 2.437832e-06 -3.903664e-06 -0.4795078 -0.8220834
1130630630.63 0.2493969 -0.7364787 1.76725e-05 9.8147e-06 -7.106758e-06 -6.032364e-06 -0.4987899 -0.8133698
1140540540.54 0.07958025 -0.7616769 -1.05477e-05 -1.000075e-05 -2.939795e-05 -1.131302e-05 -0.5168744 -0.8053533
1150450450.45 -0.0923993 -0.7480239 1.563788e-05 -1.119999e-05 -6.076516e-06 1.583763e-05 -0.535275 -0.7954356
1160360360.36 -0.2579353 -0.6942209 5.836028e-06 3.274696e-06 -2.327714e-05 -1.429472e-05 -0.5536556 -0.7854158
1170270270.27 -0.4055684 -0.6034065 2.127058e-05 -1.811005e-05 8.038368e-07 -2.498019e-05 -0.5717385 -0.774379
1180180180.18 -0.5247508 -0.4836471 -2.29741e-06 -3.864119e-05 -2.232417e-05 4.972362e-06 -0.5889945 -0.7630128
1190090090.09 -0.6114259 -0.3408512 -2.739669e-05 -3.098748e-05 -5.186539e-06 -8.600583e-06 -0.6050395 -0.7514015
1200000000.0 -0.6608472 -0.187428 2.39901e-05 -2.594197e-05 1.778735e-05 -3.557637e-06 -0.6217349 -0.7400626
1209909909.91 -0.673083 -0.03316933 -8.287551e-06 -7.198249e-06 5.622699e-06 1.843367e-05 -0.6382457 -0.7271031
1219819819.82 -0.6529946 0.1106709 -1.146484e-05 -2.525282e-05 -2.953543e-05 -1.846302e-05 -0.6535246 -0.7138476
1229729729.73 -0.6051133 0.2416527 -2.619566e-05 8.757464e-06 -2.583935e-05 6.347621e-06 -0.6688313 -0.700128
1239639639.64 -0.5304182 0.3607182 -1.65401e-05 -2.799688e-05 2.461341e-06 1.135102e-05 -0.6834961 -0.6861703
1249549549.55 -0.4343171 0.4592739 -3.579531e-05 -1.683161e-05 -1.895572e-05 1.603456e-05 -0.6977543 -0.6721548
1259459459.46 -0.3261553 0.5309191 -1.336544e-05 2.020593e-05 -9.094745e-06 8.252307e-06 -0.7130865 -0.6577791
1269369369.37 -0.2142898 0.5769984 3.665974e-06 -2.894007e-06 -8.033653e-06 -4.478301e-06 -0.7256332 -0.6409815
1279279279.28 -0.09976066 0.599201 -3.803834e-05 -8.313747e-06 1.780524e-06 -5.597438e-06 -0.739775 -0.626564
1289189189.19 0.01080842 0.5996085 -1.620772e-05 1.804955e-05 -1.402963e-06 -3.976219e-06 -0.7519322 -0.6106755
1299099099.1 0.1156243 0.5806178 -2.417661e-05 -1.474422e-05 -1.517759e-06 1.349494e-05 -0.7640941 -0.5947176
1309009009.01 0.2119588 0.5439156 -2.29102e-05 -2.142981e-05 3.314832e-06 -1.345495e-05 -0.7752599 -0.5791684
1318918918.92 0.2948525 0.4934414 -8.513515e-06 1.127132e-06 4.470966e-06 1.875019e-07 -0.7857865 -0.5629257
1328828828.83 0.3643157 0.432578 -8.384445e-06 4.494351e-06 4.498756e-06 8.210885e-07 -0.7961152 -0.5476291
1338738738.74 0.4199778 0.3622275 3.22067e-06 1.715868e-05 -1.268495e-05 9.949093e-06 -0.8059593 -0.5306771
1348648648.65 0.4619337 0.2852467 -1.189391e-05 -6.178482e-06 -9.889387e-06 -1.909754e-05 -0.8153923 -0.5137026
1358558558.56 0.4898264 0.2037133 -4.11773e-06 -1.102262e-06 -1.714335e-05 -5.705219e-06 -0.8243505 -0.4972688
1368468468.47 0.5022975 0.1192601 -2.453247e-05 2.745906e-05 -8.440319e-06 -2.454817e-05 -0.8330457 -0.4799545
1378378378.38 0.4995102 0.03425395 -8.074087e-06 2.533432e-05 -1.548575e-05 -1.031105e-05 -0.8413907 -0.4618435
1388288288.29 0.4810862 -0.05007105 -1.230028e-05 -3.012713e-06 -3.435652e-05 -9.51975e-06 -0.8491443 -0.4439271
1398198198.2 0.4459569 -0.1289539 4.50047e-06 1.395345e-05 -1.22419e-05 6.383107e-06 -0.856585 -0.4248143
1408108108.11 0.3945056 -0.1994503 -5.676904e-06 1.123104e-05 -1.237546e-05 4.32767e-06 -0.8627826 -0.4068846
1418018018.02 0.3297789 -0.2577476 -8.356612e-06 2.215354e-05 -6.453684e-07 1.803543e-05 -0.8682797 -0.3887785
1427927927.93 0.2537303 -0.3008467 2.666982e-06 -1.14313e-05 1.385421e-05 -1.110861e-06 -0.8731993 -0.3710672
1437837837.84 0.1677596 -0.3263077 -3.525375e-06 -7.71997e-06 -1.332727e-05 -1.434376e-05 -0.8779579 -0.3533991
1447747747.75 0.08246646 -0.3296379 -2.796111e-06 -8.214969e-06 3.645296e-06 3.321914e-05 -0.8818096 -0.337931
1457657657.66 0.002075455 -0.313002 -5.561297e-06 1.494252e-05 1.140432e-05 -6.036676e-06 -0.884456 -0.3219681
1467567567.57 -0.07183999 -0.279467 5.872406e-07 4.465041e-06 1.115846e-05 -2.480579e-05 -0.886947 -0.3065548
1477477477.48 -0.1382857 -0.2297571 1.342059e-05 8.178014e-06 1.053181e-05 1.718927e-05 -0.888737 -0.2923004
1487387387.39 -0.1934157 -0.1654677 -8.581233e-06 -4.933854e-06 -1.200387e-05 7.590879e-06 -0.8927156 -0.2778043
1497297297.3 -0.2316021 -0.08853165 1.400433e-05 -2.224092e-06 -1.637779e-05 2.824962e-05 -0.8945958 -0.2633418
1507207207.21 -0.2486028 -0.004186479 -1.734731e-05 9.678375e-06 3.63283e-06 -2.618578e-06 -0.8973363 -0.2483558
1517117117.12 -0.2471732 0.08158895 4.395024e-06 1.723893e-06 3.043835e-05 9.079772e-06 -0.9007461 -0.2333721
1527027027.03 -0.2257919 0.1653629 1.882418e-06 3.832332e-05 1.91377e-05 1.208272e-05 -0.904407 -0.2173439
1536936936.94 -0.185918 0.2417984 1.199044e-05 7.923866e-06 -3.255951e-07 1.884039e-05 -0.9073631 -0.1996346
1546846846.85 -0.1298062 0.3085505 -2.408444e-05 -8.631375e-07 9.683561e-06 3.66816e-06 -0.9114899 -0.1843451
1556756756.76 -0.05980121 0.3605953 -3.419239e-08 -1.369542e-05 4.694956e-06 9.656577e-08 -0.9154518 -0.1682769
1566666666.67 0.020896 0.3961894 -6.828709e-06 -7.107907e-07 7.053399e-07 -4.709986e-06 -0.9173428 -0.1525003
1576576576.58 0.1081603 0.4141568 8.171982e-07 2.837122e-05 -3.338254e-06 -5.963547e-06 -0.9227383 -0.1377013
1586486486.49 0.1973668 0.4137193 -1.628098e-05 -1.25083e-05 2.381376e-05 -5.723207e-06 -0.9238585 -0.1196716
1596396396.4 0.2867344 0.394735 -2.393716e-05 2.819034e-05 5.061383e-06 2.040915e-05 -0.9287102 -0.1046482
1606306306.31 0.3724504 0.3571288 1.343388e-05 -2.211001e-05 -1.097913e-05 -2.247804e-06 -0.9304572 -0.08706563
1616216216.22 0.4497148 0.3020111 -1.4118e-05 -2.857569e-06 -2.863046e-05 2.130405e-05 -0.9352073 -0.07142947
1626126126.13 0.5160892 0.2324046 -1.342243e-05 9.299195e-06 2.432667e-05 7.196914e-06 -0.9369851 -0.05297938
1636036036.04 0.5686861 0.1507848 9.36442e-06 -3.668078e-06 4.420142e-06 -2.518366e-06 -0.9383155 -0.03377523
1645945945.95 0.6052384 0.05895125 7.574631e-06 5.834683e-06 1.244416e-05 1.686602e-05 -0.9406262 -0.01673966
1655855855.86 0.6249169 -0.03889751 7.544991e-06 -2.433152e-05 1.597984e-05 1.201662e-06 -0.9417012 0.002153535
1665765765.77 0.6270768 -0.1392725 2.916476e-05 1.28997e-05 -1.002543e-05 1.116695e-06 -0.9428266 0.02032275
1675675675.68 0.6095281 -0.2428143 3.000425e-05 3.247333e-06 3.030362e-05 -1.444491e-05 -0.943463 0.03826863
1685585585.59 0.5736271 -0.3421989 -3.666795e-06 1.193032e-05 -1.517266e-06 9.809792e-06 -0.9432021 0.05806945
1695495495.5 0.5211071 -0.4318193 -9.468497e-06 -1.319003e-05 7.418149e-06 -8.096811e-06 -0.9420551 0.07777844
1705405405.41 0.4549754 -0.5103157 8.537437e-06 -1.380927e-05 -3.895303e-06 8.909606e-06 -0.9409845 0.09712296
1715315315.32 0.3749894 -0.5763903 -1.365248e-06 -1.417375e-05 -1.238413e-05 -7.441473e-06 -0.9403367 0.1150393
1725225225.23 0.2784986 -0.6309252 1.334472e-05 -2.305095e-05 1.27363e-05 -8.122896e-06 -0.9383085 0.1332241
1735135135.14 0.1626304 -0.6699855 -3.400501e-05 -5.107253e-06 4.03121e-06 -2.338976e-05 -0.935329 0.1526051
1745045045.05 0.03443813 -0.6863388 -3.776391e-06 1.424453e-06 9.978791e-07 -6.61747e-06 -0.932269 0.1726214
1754954954.95 -0.09660663 -0.6769343 -8.477804e-07 1.288566e-05 1.665493e-05 -9.016658e-06 -0.9287118 0.1927029
1764864864.86 -0.2230531 -0.6415977 1.695025e-05 1.863032e-06 8.074136e-06 -1.846879e-05 -0.9252696 0.2116726
1774774774.77 -0.3384038 -0.5827366 1.686469e-05 3.841435e-06 -1.542741e-05 -4.554282e-05 -0.9204201 0.2306501
1784684684.68 -0.4399494 -0.5023791 1.589036e-05 1.413078e-05 -9.636656e-07 -9.613122e-06 -0.915482 0.2497514
1794594594.59 -0.5242497 -0.4039241 -3.161372e-06 1.697764e-05 -4.163356e-07 1.467171e-05 -0.9098187 0.2692961
1804504504.5 -0.5880052 -0.2904871 1.408668e-05 1.359976e-05 2.188802e-05 1.267888e-05 -0.9038719 0.2890159
1814414414.41 -0.6290501 -0.1678435 -1.805264e-05 -2.99905e-06 -6.441805e-06 -1.183261e-05 -0.8978484 0.3072226
1824324324.32 -0.6467459 -0.03958568 2.913239e-05 -8.141401e-06 -5.089448e-06 -1.272667e-05 -0.8906195 0.3242908
1834234234.23 -0.6396623 0.09069059 1.204805e-05 -2.033862e-06 1.769854e-05 -7.244939e-07 -0.8837166 0.3412744
1844144144.14 -0.6086141 0.2175568 -3.580565e-07 -6.16821e-06 2.683474e-05 -2.81245e-05 -0.8781065 0.3569739
1854054054.05 -0.5560876 0.3373003 1.542456e-05 3.784797e-06 3.589333e-05 -6.129206e-06 -0.868018 0.3749914
1863963963.96 -0.4803726 0.4452323 8.82899e-06 4.532745e-06 1.778363e-05 -4.467955e-05 -0.8609533 0.3912727
