! Created with skrf 1.9.0 (http://scikit-rf.org).
# Hz S RI R 50.0 
!freq ReS11 ImS11 ReS21 ImS21 ReS12 ImS12 ReS22 ImS22
10000000.0 0.4620915 0.2126312 5.144499e-07 5.743085e-07 2.478241e-06 1.83352e-06 0.5148979 0.8573504
110909090.909 0.6443161 -0.6798827 4.672078e-07 -2.47344e-06 -6.608615e-07 1.709898e-07 0.9959731 -0.02565048
211818181.818 -0.02278582 -0.8091347 -1.246291e-06 -2.778592e-06 -5.450777e-07 4.66339e-07 0.9519126 -0.3010832
312727272.727 -0.4948965 -0.432905 -8.445777e-06 -5.029022e-08 -2.42528e-06 -1.59852e-06 0.8646307 -0.5032929
413636363.636 -0.5163148 0.07238434 6.394283e-06 1.005645e-05 -1.35279e-06 4.252341e-06 0.7399474 -0.6712125
514545454.545 -0.2054093 0.4208605 7.036477e-06 3.11259e-06 5.557061e-06 -1.410943e-06 0.5776507 -0.8090475
615454545.455 0.2763139 0.4671806 -1.896071e-06 1.604588e-05 -3.027367e-06 7.435397e-06 0.3879785 -0.9103366
716363636.364 0.6418586 0.08045939 2.923592e-06 -4.519941e-06 -4.079759e-06 -2.569489e-06 0.2054866 -0.9740366
817272727.273 0.6572637 -0.4551804 -4.741136e-06 5.17618e-06 -4.825548e-06 -5.231185e-06 -0.005212935 -0.9924698
918181818.182 0.1135551 -0.9057364 -9.806555e-06 7.70836e-06 3.217727e-06 1.091981e-07 -0.2056732 -0.9326073
1019090909.09 -0.5526761 -0.7371485 -4.231641e-06 -1.990583e-06 2.343273e-06 1.170694e-06 -0.3114841 -0.8520204
1120000000.0 -0.8544427 -0.05926143 4.313178e-06 -5.40878e-06 -9.309984e-07 -4.878105e-06 -0.4792752 -0.8220329
1220909090.91 -0.4911898 0.4913007 -3.603574e-06 -1.249823e-05 -8.895878e-06 2.614467e-07 -0.6563561 -0.7116333
1321818181.82 0.06054346 0.5426435 -6.805176e-06 3.870355e-06 1.155786e-06 5.488326e-07 -0.7897794 -0.5575565
1422727272.73 0.4084125 0.2118138 -4.024684e-06 4.549681e-06 -7.732736e-06 5.60544e-06 -0.8720119 -0.378286
1523636363.64 0.4140215 -0.2296352 -1.967858e-06 -1.910555e-06 -1.151407e-06 5.961052e-06 -0.9037503 -0.2212224
1624545454.55 0.1175724 -0.5609428 4.427222e-06 4.614312e-06 4.900759e-06 3.974912e-06 -0.9375067 -0.05393093
1725454545.45 -0.3559718 -0.5797071 2.416688e-06 -1.027045e-05 4.216732e-06 -3.568479e-06 -0.9387425 0.1339549
1826363636.36 -0.765441 -0.2398111 1.605499e-07 3.979373e-06 4.74857e-06 4.071861e-06 -0.8887264 0.3301099
1927272727.27 -0.8102109 0.3820148 3.491788e-06 4.034029e-06 1.497913e-06 -4.161767e-07 -0.7992459 0.4903826
2028181818.18 -0.2983051 0.8497395 6.668142e-06 3.296381e-07 2.574918e-06 -2.315522e-06 -0.6860217 0.623991
2129090909.09 0.4043702 0.6886455 1.844747e-06 -3.143484e-06 6.130174e-07 -4.205598e-06 -0.5561753 0.7426338
2230000000.0 0.6088795 0.0650129 -4.287835e-07 5.472969e-06 -1.831105e-06 1.727366e-06 -0.4182444 0.8314999
2330909090.91 0.2763871 -0.3640136 -6.883277e-07 -1.416112e-06 -2.589724e-06 1.409444e-07 -0.2629344 0.9052978
2431818181.82 -0.1801924 -0.3713142 6.608991e-07 5.226058e-06 -2.756483e-06 5.656031e-06 -0.08345269 0.9356255
2532727272.73 -0.4648153 -0.07877447 9.859261e-07 6.316118e-07 2.830586e-06 2.510785e-06 0.09057393 0.9240437
2633636363.64 -0.4893019 0.3226761 -1.61557e-07 -4.852571e-06 -9.90325e-07 -4.485416e-06 0.2591455 0.8948129
2734545454.55 -0.2303002 0.6572149 -3.70006e-06 -9.12392e-07 1.104228e-06 2.170083e-06 0.4178304 0.838877
2835454545.45 0.2316521 0.7687847 -4.399064e-06 -3.244796e-06 4.834102e-06 -3.043896e-06 0.5585423 0.7559008
2936363636.36 0.7300091 0.4995627 -2.734543e-06 -4.286181e-07 -1.345735e-07 5.020285e-06 0.6834105 0.6475025
3037272727.27 0.8731395 -0.1586638 4.827198e-06 2.568471e-06 4.337069e-06 -8.829165e-08 0.7950719 0.5071387
3138181818.18 0.3412921 -0.6571786 5.36038e-06 -8.285248e-06 7.233246e-06 -6.305638e-06 0.8758927 0.3501713
3239090909.09 -0.263114 -0.4227324 -1.760252e-05 -7.292227e-06 -1.70414e-05 -6.050599e-06 0.9244454 0.1837129
3340000000.0 -0.3373059 0.06182935 -7.038428e-06 1.667934e-05 -8.406236e-06 1.486946e-05 0.9417731 0.01821253
3440909090.91 -0.07228854 0.3368717 8.178572e-06 1.148967e-05 8.836069e-06 1.035028e-05 0.9314994 -0.1469067
3541818181.82 0.2632805 0.3498249 1.251433e-05 -1.05014e-06 6.370895e-06 2.775812e-06 0.8929647 -0.3141292
3642727272.73 0.5290439 0.1567476 8.501299e-06 -6.867034e-06 3.691442e-07 -7.778714e-06 0.8205271 -0.4786614
3743636363.64 0.6388083 -0.184561 -4.008597e-07 -5.027118e-06 3.644206e-06 -4.591116e-06 0.718527 -0.6232464
3844545454.55 0.5057669 -0.591868 6.952915e-07 -1.723241e-06 9.538522e-07 -3.912411e-06 0.5932608 -0.7415322
3945454545.45 0.04122696 -0.8762373 1.13245e-06 1.117212e-06 -4.010648e-06 6.828835e-07 0.4502838 -0.8345683
4046363636.36 -0.5926035 -0.6307487 -3.876366e-08 -9.847447e-07 1.432538e-07 -1.336354e-06 0.2921223 -0.9054917
4147272727.27 -0.6269026 0.06392889 6.720571e-06 1.150577e-06 8.092978e-06 -2.347452e-06 0.1296811 -0.9481652
4248181818.18 -0.1523214 0.3058081 -4.505074e-06 -6.906298e-06 4.620461e-06 -9.671276e-06 -0.0427111 -0.9565528
4349090909.09 0.1456964 0.129808 -7.532603e-06 3.099648e-07 1.983594e-06 1.57387e-06 -0.2101859 -0.9328958
4450000000.0 0.1997635 -0.1275295 -9.207167e-06 -4.193236e-07 -6.004443e-06 2.751006e-06 -0.3851433 -0.865327
4550909090.91 0.0876244 -0.3430455 -5.937408e-07 -7.347789e-06 -1.951423e-06 -5.642351e-06 -0.5585203 -0.7711812
4651818181.82 -0.1435227 -0.4617029 -7.629807e-06 9.196824e-07 1.367242e-07 -1.596862e-06 -0.6888253 -0.6688307
4752727272.73 -0.4495976 -0.419328 -1.299357e-05 2.591218e-07 -1.351556e-06 4.7752e-06 -0.8036892 -0.5391794
4853636363.64 -0.7418963 -0.1296387 4.16204e-06 5.414831e-06 -4.432327e-06 7.518892e-06 -0.8810815 -0.3740855
4954545454.55 -0.7436491 0.4331094 2.863833e-05 1.833102e-05 3.03907e-06 -1.365295e-06 -0.928269 -0.1964294
5055454545.45 -0.1808297 0.7906222 9.909591e-06 1.08297e-05 -1.405029e-05 1.691469e-05 -0.9536083 -0.01718626
5156363636.36 0.3378143 0.4606532 8.125611e-06 5.215848e-06 1.12659e-05 2.611677e-05 -0.9441072 0.1619534
5257272727.27 0.3270197 -0.002730203 2.068167e-05 -4.387874e-06 1.613908e-05 1.731391e-05 -0.9046009 0.3328526
5358181818.18 0.06362835 -0.2043331 2.573784e-05 -1.228409e-05 9.918318e-06 -8.80132e-06 -0.8279988 0.4914643
5459090909.09 -0.2038354 -0.1708306 -5.12833e-06 -1.257213e-06 -1.612906e-06 -1.009605e-05 -0.7238312 0.6315746
5560000000.0 -0.3811466 0.02131178 -2.21687e-05 -1.563948e-05 -4.238169e-06 -1.857905e-05 -0.5997772 0.7489691
5660909090.91 -0.4125502 0.3016281 -2.160441e-05 -1.906409e-05 -4.146904e-06 -6.749895e-06 -0.4592409 0.8413244
5761818181.82 -0.2395491 0.5904674 -9.149231e-06 -6.421334e-06 -1.533747e-05 1.067391e-05 -0.2974747 0.9116542
5862727272.73 0.1731385 0.7461963 -2.777711e-06 1.760284e-05 -6.315052e-06 -3.964901e-07 -0.1200394 0.952722
5963636363.64 0.7124919 0.4849825 -3.778035e-06 -6.866751e-06 3.528131e-06 -5.41924e-06 0.05680251 0.9588743
6064545454.55 0.7625086 -0.2445463 -1.636877e-05 -4.790704e-06 -8.066563e-06 1.572603e-05 0.2263184 0.9374899
6165454545.45 0.1431202 -0.538734 4.26933e-06 9.192122e-06 1.022667e-05 8.856472e-06 0.3910809 0.876449
6266363636.36 -0.2606016 -0.237903 -3.524927e-06 6.670747e-06 4.442576e-06 7.994571e-06 0.5523275 0.7782345
6367272727.27 -0.2658395 0.1337214 1.170858e-05 -2.575466e-07 2.646044e-06 1.560953e-07 0.6943076 0.653936
6468181818.18 -0.05284854 0.3611102 1.738775e-05 -9.860633e-06 1.554169e-06 8.01645e-06 0.8089179 0.5320287
6569090909.09 0.2370749 0.4094497 5.755304e-06 -9.071901e-06 -7.564847e-06 -8.27244e-06 0.8902767 0.3993933
6670000000.0 0.5128206 0.273205 -2.809194e-06 -1.615024e-08 -3.771456e-06 -1.315819e-05 0.9366627 0.2477018
6770909090.91 0.6791397 -0.05542657 4.823376e-07 3.218829e-07 1.096534e-05 -1.031257e-05 0.9422191 0.06114222
6871818181.82 0.5919876 -0.5277841 2.647627e-06 -4.73649e-06 1.803305e-05 1.196143e-06 0.9304059 -0.1293903
6972727272.73 0.04773891 -0.8652266 1.146971e-06 -3.857239e-06 -8.543337e-06 -7.046662e-08 0.9112135 -0.3058705
7073636363.64 -0.6207932 -0.4540704 -1.461997e-05 4.499624e-06 -1.693396e-05 -1.262427e-05 0.8550965 -0.464523
7174545454.55 -0.4787537 0.2347694 3.041426e-06 1.192366e-05 3.703381e-06 -5.65871e-06 0.7470328 -0.602485
7275454545.45 -0.0005575256 0.3617804 7.187046e-06 3.043051e-06 2.09023e-05 -4.831933e-06 0.5906868 -0.7290812
7376363636.36 0.2928411 0.1397703 -8.543163e-06 -9.01743e-06 4.715012e-06 8.073197e-07 0.4280157 -0.8413234
7477272727.27 0.355724 -0.1714243 -3.979924e-06 -9.675322e-06 -9.794857e-06 7.881482e-06 0.2666637 -0.9210978
7578181818.18 0.2154707 -0.4432755 2.605734e-06 -9.385898e-07 -1.605316e-05 -6.121455e-06 0.1000955 -0.95261
7679090909.09 -0.0776583 -0.5947184 5.728836e-06 1.271041e-05 -6.785162e-06 -6.58009e-06 -0.08714639 -0.9355159
7780000000.0 -0.4648086 -0.5422032 -5.080809e-06 1.320572e-05 1.636953e-06 -2.057708e-06 -0.2906124 -0.8845997
7880909090.91 -0.8030496 -0.1925418 2.657122e-06 -2.489195e-06 -3.007174e-06 -1.145938e-06 -0.4734077 -0.8177735
7981818181.82 -0.7326952 0.4491171 1.387644e-05 -1.045252e-05 -9.763221e-06 -5.278633e-06 -0.6119368 -0.7325889
8082727272.73 -0.002198293 0.7340812 -7.629402e-06 5.830191e-06 5.702598e-06 -4.786039e-06 -0.7422411 -0.5577654
8183636363.64 0.4183732 0.2036133 1.446396e-05 6.60067e-06 1.284461e-05 3.285867e-05 -0.8361377 -0.4015963
8284545454.55 0.2118491 -0.2342755 8.331901e-06 -1.223401e-05 1.48945e-05 -2.111293e-05 -0.8960826 -0.2294102
8385454545.45 -0.13681 -0.3176364 1.079918e-06 -1.472466e-05 8.535691e-06 1.72563e-05 -0.9194605 -0.0522502
8486363636.36 -0.4061728 -0.1692971 -1.073086e-05 -1.031256e-05 2.212885e-05 -1.765956e-05 -0.9103076 0.1254409
8587272727.27 -0.5276274 0.1017672 -2.298716e-05 -1.364391e-05 -3.152886e-05 -1.264906e-05 -0.8686066 0.2993288
8688181818.18 -0.4817941 0.4200601 -4.957441e-05 -1.071512e-05 -4.073666e-05 -2.652635e-05 -0.7916592 0.459555
8789090909.09 -0.2308038 0.7016008 -5.744951e-06 2.581546e-05 -2.246807e-05 9.008343e-06 -0.6889479 0.6011573
8890000000.0 0.2468899 0.7919099 2.320987e-05 2.322922e-05 1.721644e-05 2.783363e-05 -0.5602526 0.7217415
8990909090.91 0.7590995 0.3763494 9.99032e-06 -2.677703e-05 2.074649e-05 -8.782162e-06 -0.4119244 0.814256
9091818181.82 0.5362521 -0.3811435 -1.282167e-05 -3.86247e-05 4.203092e-06 -4.496131e-05 -0.2494753 0.8763547
9192727272.73 -0.1468222 -0.3585661 -4.962838e-05 6.186033e-06 -6.728232e-05 2.058902e-05 -0.0795733 0.9067529
9293636363.64 -0.32876 0.08471095 -9.246723e-06 2.940746e-05 1.458246e-05 2.417901e-05 0.09131548 0.9036003
9394545454.55 -0.1568862 0.3976547 1.173366e-05 9.450117e-06 1.339968e-05 3.033615e-06 0.2556686 0.8683895
9495454545.45 0.1346786 0.5064368 9.328615e-06 -4.889703e-06 1.06461e-05 -8.364265e-08 0.408877 0.8044449
9596363636.36 0.434285 0.4284874 4.046083e-06 9.277105e-07 -6.577213e-06 -6.394464e-06 0.5472961 0.7157533
9697272727.27 0.66537 0.1794382 1.200663e-05 6.728967e-06 1.049177e-05 -7.670359e-06 0.668079 0.6025857
9798181818.18 0.7316617 -0.2195634 1.298852e-05 -9.088688e-06 1.411682e-05 -2.459776e-06 0.765184 0.4677137
9899090909.09 0.4665135 -0.6739719 -3.419996e-07 -1.194089e-05 3.947113e-06 -4.630056e-06 0.8359038 0.3172425
10000000000.0 -0.2777484 -0.7233871 -8.022739e-06 -3.727775e-06 2.870567e-06 -7.210949e-07 0.8825155 0.1093094
