! Created with skrf 1.9.0 (http://scikit-rf.org).
# Hz S RI R 50.0 
!freq ReS11 ImS11 ReS21 ImS21 ReS12 ImS12 ReS22 ImS22
100000000.0 0.3429638 0.9217799 1.597581e-05 2.141101e-06 1.510285e-05 -5.981098e-06 0.9977625 0.01491234
109909909.91 0.5130751 0.8142894 -1.028565e-05 -9.637198e-06 -1.00339e-05 -2.195228e-06 0.9963505 -0.02132172
119819819.82 0.655538 0.6746322 -9.593275e-06 -7.035989e-07 -1.561891e-05 -3.335043e-06 0.9950377 -0.055843
129729729.73 0.762983 0.5108043 -6.543323e-07 -1.763009e-05 -9.728404e-06 -1.013098e-05 0.9927681 -0.0879338
139639639.64 0.830996 0.3314202 -1.41411e-06 -8.252874e-06 1.864059e-05 7.712387e-06 0.9899285 -0.1174355
149549549.55 0.8600966 0.1467935 -1.042297e-05 -1.775534e-05 1.726094e-05 1.634907e-05 0.9853812 -0.1461666
159459459.459 0.8470027 -0.03633795 9.077264e-06 -8.436374e-06 5.749515e-06 2.431403e-05 0.9818625 -0.1733425
169369369.369 0.7989621 -0.2074979 -9.351092e-06 -2.853664e-05 4.304773e-06 2.632556e-06 0.9770678 -0.198977
179279279.279 0.718587 -0.3602816 -2.297767e-06 9.038664e-06 -2.544365e-06 1.132261e-05 0.9715573 -0.2240388
189189189.189 0.6111637 -0.4897924 -4.8876e-06 -1.15206e-05 -3.558466e-07 6.864553e-06 0.971477 -0.2237397
199099099.099 0.4835271 -0.5915303 -1.908032e-06 1.379907e-05 -2.532738e-05 6.414363e-06 0.9603294 -0.2711556
209009009.009 0.3432297 -0.6652516 1.339621e-05 3.386992e-06 2.508094e-05 -7.482771e-06 0.9536695 -0.2940092
218918918.919 0.1940079 -0.707195 2.85497e-05 -2.123076e-05 2.83028e-05 3.854306e-07 0.9472607 -0.3160137
228828828.829 0.04426507 -0.7188089 -9.402933e-06 -9.421108e-06 -1.412581e-05 8.624784e-06 0.9398309 -0.3377801
238738738.739 -0.1011155 -0.6998911 4.718713e-06 -1.495086e-05 2.14724e-06 1.951401e-05 0.932255 -0.3583369
248648648.649 -0.2366204 -0.6555979 -1.043634e-05 -2.36936e-05 -1.021298e-05 1.420674e-05 0.9241683 -0.3792495
258558558.559 -0.3584844 -0.5874115 -1.299483e-05 1.123331e-05 1.104465e-05 -7.842056e-06 0.9164178 -0.399626
268468468.468 -0.463886 -0.4991965 -5.009362e-07 2.194211e-05 -3.943468e-05 -6.764888e-06 0.9072414 -0.4194988
278378378.378 -0.5471323 -0.3942034 -1.153019e-05 -2.766462e-05 -2.392148e-06 -6.441373e-06 0.8983057 -0.438554
288288288.288 -0.608979 -0.2749991 -8.877747e-06 -2.924828e-06 -2.530304e-05 -4.554885e-06 0.8893655 -0.4571543
298198198.198 -0.6443507 -0.1501244 -8.102533e-06 4.52653e-06 1.094159e-05 8.990785e-06 0.8798566 -0.4762233
308108108.108 -0.6554261 -0.01743988 -1.186924e-05 -9.008236e-06 3.031099e-06 1.006439e-05 0.8697236 -0.4942908
318018018.018 -0.6375678 0.1107944 1.014016e-05 1.429394e-05 -8.14012e-06 -1.155793e-05 0.8595957 -0.5127404
327927927.928 -0.5851173 0.2343811 -9.541905e-06 1.874082e-05 -2.431489e-06 -1.484553e-05 0.8487713 -0.5308421
337837837.838 -0.5129666 0.3206644 6.068507e-06 6.898536e-06 1.4836e-05 -1.564554e-05 0.8371135 -0.5474728
347747747.748 -0.447484 0.3957033 5.094807e-06 1.667373e-05 1.322888e-05 -8.135517e-06 0.8255249 -0.5644236
357657657.658 -0.3614347 0.4692254 5.365017e-06 -1.287109e-06 -1.202426e-05 -1.752307e-05 0.7927524 -0.6129739
367567567.568 -0.2643178 0.5221683 -7.896076e-06 -9.640252e-06 -1.317915e-05 1.171711e-05 0.704125 -0.7179357
377477477.477 -0.1578093 0.5522673 8.059693e-06 9.058277e-06 3.97896e-07 2.067401e-05 0.8161054 -0.5750678
387387387.387 -0.04324761 0.5601951 -6.39109e-06 4.985388e-06 9.589275e-06 3.081995e-06 0.7757455 -0.6298065
397297297.297 0.06602512 0.5445489 -9.472002e-06 -7.691287e-06 1.828637e-05 8.573666e-06 0.7634318 -0.6459497
407207207.207 0.1658873 0.5066557 3.304757e-06 1.569519e-05 4.942392e-06 -2.671632e-05 0.749258 -0.6611015
417117117.117 0.2568559 0.447982 1.712454e-05 -1.044028e-05 -2.389786e-06 1.033622e-05 0.7354451 -0.6756399
427027027.027 0.3342278 0.3711678 1.456296e-05 -7.598483e-06 1.28141e-05 1.377886e-05 0.7206249 -0.6908229
436936936.937 0.3917894 0.2825016 2.506212e-05 4.970236e-06 -9.20513e-06 1.257038e-05 0.7052482 -0.7060894
446846846.847 0.4273733 0.1873165 -2.0169e-05 1.683593e-05 6.288482e-06 -1.965048e-05 0.6892539 -0.7215
456756756.757 0.442353 0.08728012 4.388024e-06 3.530271e-07 -3.582053e-06 3.195644e-05 0.6739833 -0.734197
466666666.667 0.4356579 -0.01635518 2.196886e-05 4.002784e-06 3.623961e-06 -5.604079e-06 0.6597475 -0.7471206
476576576.577 0.4067193 -0.1159316 4.02698e-05 7.518382e-06 2.317864e-05 -2.125111e-06 0.6431608 -0.7603338
486486486.486 0.3588076 -0.2038336 1.262708e-05 5.430301e-06 1.822316e-05 5.309477e-06 0.62734 -0.7727622
496396396.396 0.2951326 -0.2782859 1.014323e-05 -9.439186e-06 -5.308824e-06 3.693911e-06 0.6108775 -0.7860005
506306306.306 0.2191861 -0.3375182 2.213909e-05 -7.395153e-07 8.331248e-06 -2.607319e-05 0.5924745 -0.7992286
516216216.216 0.1304906 -0.3809543 1.497256e-05 -1.074845e-05 -3.632928e-06 7.824021e-06 0.5758339 -0.8101357
526126126.126 0.03544114 -0.4091378 3.297646e-06 -3.061208e-06 -4.644909e-06 7.330054e-06 0.5598159 -0.8212399
536036036.036 -0.06827883 -0.4183302 1.910317e-06 -1.262518e-05 6.719416e-06 5.600195e-06 0.5422921 -0.8319834
545945945.946 -0.1743674 -0.4040656 -1.249565e-05 2.315178e-05 5.654022e-06 1.280142e-05 0.5234463 -0.8435649
555855855.856 -0.2768985 -0.3657274 1.161005e-05 1.441029e-05 2.250695e-06 -1.248422e-05 0.5056715 -0.8550292
565765765.766 -0.3691034 -0.3051424 9.74092e-06 -1.272445e-05 -4.038829e-06 2.111358e-06 0.4881415 -0.8644317
575675675.676 -0.4458668 -0.2252216 5.30916e-06 3.239092e-06 -1.539429e-06 -4.372127e-06 0.4702297 -0.8740355
585585585.586 -0.5065696 -0.1256416 3.243266e-06 -9.183677e-06 1.664112e-05 -1.313078e-05 0.4499798 -0.8843567
595495495.495 -0.5439359 -0.01445465 -1.715989e-05 1.741473e-05 -2.386085e-05 6.650007e-06 0.4300806 -0.8938393
605405405.405 -0.5568842 0.1042618 1.324563e-05 -3.0644e-06 -9.709376e-06 -5.512026e-06 0.4098593 -0.9030533
615315315.315 -0.542813 0.2267857 -8.390363e-06 2.221431e-06 9.232201e-06 6.835383e-06 0.3888849 -0.9091058
625225225.225 -0.5035967 0.3405382 8.668767e-06 1.099001e-05 -8.403895e-06 -8.306777e-06 0.3698976 -0.9153166
635135135.135 -0.4386623 0.4455209 6.075682e-06 2.294829e-05 1.925539e-06 -1.629322e-05 0.3496943 -0.9185856
645045045.045 -0.3519916 0.5335824 6.440764e-06 3.76539e-06 -1.22104e-05 2.812203e-05 0.3335602 -0.9209588
654954954.955 -0.2519481 0.6006934 -7.705623e-06 1.674197e-05 -4.847556e-07 -6.944096e-06 0.3209224 -0.9244335
664864864.865 -0.1416241 0.6466522 1.957178e-05 2.211138e-05 1.039343e-05 4.211805e-06 0.307562 -0.9322222
674774774.775 -0.01702202 0.6687013 1.568288e-05 7.279142e-07 1.253419e-05 -8.467046e-06 0.2899908 -0.9432329
684684684.685 0.1079993 0.6651114 1.36032e-05 -7.062059e-07 1.830815e-05 2.128974e-06 0.2711648 -0.9518899
694594594.595 0.2284866 0.6350334 2.530875e-05 -1.465336e-05 7.797184e-06 7.635955e-06 0.2514357 -0.9595651
704504504.505 0.3398659 0.5803319 -5.943447e-06 -4.876239e-06 -1.777209e-05 -1.544026e-05 0.2312296 -0.9670073
714414414.414 0.4376357 0.5041856 1.493411e-05 -2.372577e-05 -7.092611e-06 -2.464875e-05 0.210355 -0.9726667
724324324.324 0.5141622 0.4144504 -7.276883e-06 -1.754453e-05 2.561944e-05 -3.895181e-06 0.1904411 -0.977892
734234234.234 0.5682776 0.3179323 1.203093e-05 9.857286e-06 4.524145e-06 8.274981e-07 0.1711419 -0.9818893
744144144.144 0.6045321 0.2159021 9.308341e-06 -1.893141e-05 -5.305126e-06 3.55859e-06 0.0464012 -0.995282
754054054.054 0.6262864 0.111849 1.364119e-05 1.057262e-05 -8.832317e-06 -1.074725e-05 0.22269 -0.9720544
763963963.964 0.6349204 0.007491603 1.69559e-06 -7.627748e-06 1.150142e-06 -9.648443e-06 0.110321 -0.9905093
773873873.874 0.6319038 -0.09966362 3.76784e-06 1.255865e-06 1.456131e-05 -1.038058e-05 0.08974902 -0.9919968
783783783.784 0.6096908 -0.2120142 4.842333e-06 -1.106714e-05 -3.243361e-06 2.870879e-06 0.06817459 -0.9931101
793693693.694 0.5625802 -0.3305069 -5.389683e-06 -8.029938e-06 8.50486e-06 4.74599e-06 0.04660051 -0.9939967
803603603.604 0.488983 -0.441399 3.569774e-06 2.545468e-06 1.365914e-05 -1.188441e-05 0.02489495 -0.9942199
813513513.514 0.3942647 -0.5381871 -1.583458e-05 -2.282565e-06 -1.495143e-06 -4.39489e-06 0.003478452 -0.9927613
823423423.423 0.2764099 -0.6163224 8.70433e-06 1.632316e-05 -7.614646e-06 -1.287328e-05 -0.01672754 -0.9917753
833333333.333 0.1394969 -0.6717312 9.425505e-06 -1.612935e-06 -1.411518e-05 5.81964e-06 -0.03703501 -0.9895874
843243243.243 -0.0116754 -0.6980624 1.919856e-05 -1.063945e-06 6.351523e-07 -1.478517e-05 -0.05748114 -0.9861889
853153153.153 -0.1745404 -0.6906373 -1.416794e-05 1.07293e-05 -5.853803e-06 4.063214e-06 -0.07812196 -0.9823593
863063063.063 -0.3368488 -0.6445068 -1.331761e-05 -1.390962e-05 4.899045e-06 1.544682e-06 -0.09800791 -0.9773336
872972972.973 -0.4833092 -0.5652891 -1.670065e-05 -1.859146e-05 1.045147e-05 1.696377e-05 -0.1185688 -0.971757
882882882.883 -0.6134005 -0.4519182 -9.145429e-06 -7.804259e-06 1.591008e-05 1.671941e-05 -0.13839 -0.9649507
892792792.793 -0.7182273 -0.3043495 4.13539e-06 4.260279e-06 1.151276e-05 -5.098898e-06 -0.1577535 -0.9576623
902702702.703 -0.7865121 -0.1296988 -5.063812e-06 7.727578e-06 -8.279684e-06 7.631818e-06 -0.1763944 -0.9489062
912612612.613 -0.8101322 0.05715146 -6.06539e-06 7.420649e-06 -4.587785e-06 3.198266e-06 -0.1947184 -0.938249
922522522.523 -0.7873374 0.2432582 -1.591161e-05 3.449347e-05 2.214227e-05 -5.200403e-06 -0.2126569 -0.9282361
932432432.432 -0.7217823 0.4170356 -7.013697e-06 1.558562e-05 -1.386372e-05 -6.446769e-06 -0.2282803 -0.9164377
942342342.342 -0.6200417 0.5640444 -9.108234e-07 -1.501623e-05 -2.977352e-06 1.140161e-05 -0.2422004 -0.9042614
952252252.252 -0.4963456 0.6783726 1.360499e-05 4.326002e-06 8.258363e-06 -5.009274e-06 -0.2537931 -0.8922575
962162162.162 -0.3514233 0.7645977 -1.212279e-05 6.835572e-06 -2.032087e-05 -1.757985e-05 -0.2637538 -0.8818254
972072072.072 -0.1905276 0.8206189 -1.122441e-06 1.81854e-05 -6.859497e-06 1.534638e-05 -0.2726918 -0.8709271
981981981.982 -0.02986941 0.844039 -7.423177e-06 -1.022971e-05 -3.793782e-06 -1.213189e-06 -0.2796106 -0.8645692
991891891.892 0.1257163 0.8376015 1.583847e-06 -5.621287e-06 3.961255e-06 1.096158e-05 -0.2865357 -0.8573461
1001801801.8 0.2773421 0.8040054 -2.247182e-05 9.584058e-06 -3.43847e-06 -2.146113e-06 -0.2945202 -0.8543271
1011711711.71 0.419184 0.7428988 -2.422429e-05 3.47666e-06 2.256876e-05 -2.056456e-06 -0.3032906 -0.8529322
1021621621.62 0.5465752 0.656049 -1.175266e-05 2.312168e-06 5.175264e-06 1.709301e-05 -0.3124584 -0.8524652
1031531531.53 0.6556258 0.5467798 3.180616e-06 -8.306721e-06 1.983511e-05 -4.888507e-06 -0.3231084 -0.8526323
1041441441.44 0.7412738 0.417496 8.091885e-06 -7.830058e-06 1.523151e-05 -1.22907e-05 -0.3361849 -0.8532361
1051351351.35 0.8019032 0.2718389 -1.779628e-05 -1.839869e-05 1.505846e-05 6.976121e-06 -0.3519825 -0.8523904
1061261261.26 0.8329614 0.1160982 -1.569584e-05 -3.666221e-06 2.038462e-05 -6.103089e-07 -0.368942 -0.8503652
1071171171.17 0.831557 -0.04564121 4.87556e-06 1.044669e-05 -6.056601e-06 -1.681956e-05 -0.3871685 -0.8487317
1081081081.08 0.7997765 -0.202155 1.816144e-06 -3.719503e-06 -8.903199e-06 -3.481191e-07 -0.4055922 -0.8440662
1090990990.99 0.7408948 -0.3422283 2.245191e-06 -3.564886e-06 -5.832226e-06 1.542599e-05 -0.4238786 -0.8409404
1100900900.9 0.6555448 -0.4709426 -4.118049e-06 -8.65944e-06 -1.697147e-06 -1.033875e-05 -0.4429714 -0.8346729
1110810810.81 0.5431518 -0.5852817 -3.506873e-06 -1.536387e-05 1.921793e-06 -4.097206e-06 -0.4608219 -0.8296679
1120720720.72 0.4061061 -0.6757329 9.17979e-06 3.811663e-06 -3.06794e-05 -3.363906e-06 -0.4803914 -0.821811
1130630630.63 0.2494668 -0.736351 -2.292732e-05 -1.708908e-05 -1.434344e-05 -1.189661e-05 -0.4991579 -0.8134664
1140540540.54 0.08020779 -0.7611277 3.918427e-05 5.273866e-06 -4.606127e-05 -8.993706e-06 -0.5174097 -0.8051103
1150450450.45 -0.09220745 -0.7477201 1.370481e-05 -1.57439e-05 6.540789e-06 1.204785e-06 -0.5359432 -0.795354
1160360360.36 -0.25805 -0.6940059 8.445357e-06 1.235452e-05 -1.879447e-05 4.456112e-06 -0.5542952 -0.7851054
1170270270.27 -0.4051561 -0.6033801 -7.817437e-07 -4.72856e-06 -4.36168e-06 1.580543e-06 -0.5724686 -0.7735772
1180180180.18 -0.5246216 -0.4835426 2.733007e-05 -3.066865e-05 2.574437e-06 -9.897003e-06 -0.5895198 -0.7626472
1190090090.09 -0.6115592 -0.341 5.97199e-06 -1.919561e-05 -8.579382e-06 5.222151e-06 -0.6058379 -0.751351
1200000000.0 -0.6607563 -0.1874444 -2.600996e-05 -2.391033e-05 -4.575895e-06 4.214379e-06 -0.6219252 -0.7395919
1209909909.91 -0.6729083 -0.03340296 8.927815e-06 -3.320862e-05 -4.681016e-06 -2.272104e-05 -0.6386532 -0.727103
1219819819.82 -0.6531823 0.1105596 -1.090889e-05 1.103142e-06 -3.200192e-05 3.28511e-06 -0.6536414 -0.7136105
1229729729.73 -0.604862 0.2414098 -1.749937e-05 1.306673e-05 -2.587577e-05 6.148126e-06 -0.6688109 -0.7001328
1239639639.64 -0.5304064 0.3603288 -1.26789e-05 -2.527194e-05 -1.699662e-05 3.812295e-06 -0.6839318 -0.6861737
1249549549.55 -0.4344969 0.4587662 -2.359698e-06 1.046416e-05 -6.213736e-06 -5.29035e-06 -0.6979626 -0.6721348
1259459459.46 -0.3262192 0.5309486 -6.697398e-06 -6.744931e-06 -1.538806e-05 1.957844e-05 -0.7129007 -0.6579276
1269369369.37 -0.21472 0.5769015 9.444411e-06 4.460614e-06 -1.129551e-05 1.264091e-05 -0.7258288 -0.6407858
1279279279.28 -0.1001732 0.5989797 -1.371701e-05 -1.303309e-05 -7.331275e-06 1.304937e-05 -0.7399469 -0.6262766
1289189189.19 0.01071987 0.5996218 -1.604446e-05 -1.218683e-05 -1.419844e-05 2.296635e-05 -0.7523126 -0.6106243
1299099099.1 0.1151031 0.5803991 -2.256554e-05 -1.081446e-05 -6.654418e-06 1.015587e-05 -0.7642112 -0.5943549
1309009009.01 0.21183 0.5436986 -1.065078e-05 1.152324e-05 5.348221e-06 1.277822e-05 -0.7755998 -0.5787224
1318918918.92 0.2946377 0.4935643 1.388037e-05 6.872965e-06 4.239095e-06 4.700565e-06 -0.7860687 -0.5630169
1328828828.83 0.364161 0.4324869 -8.861174e-06 -8.142997e-06 -1.263917e-05 -7.031353e-06 -0.7964798 -0.5468498
1338738738.74 0.4197637 0.3620313 -8.454299e-06 -5.394991e-07 -8.497677e-06 -2.773195e-06 -0.806258 -0.5304869
1348648648.65 0.4618957 0.2853342 4.760089e-06 2.232252e-05 2.049537e-06 5.725879e-06 -0.8156345 -0.513608
1358558558.56 0.4894756 0.2036411 -1.277067e-05 1.416126e-05 -9.739008e-06 -1.021329e-06 -0.824694 -0.4967419
1368468468.47 0.5023957 0.1196505 -6.097837e-06 1.611918e-05 1.600464e-06 1.882166e-05 -0.8338317 -0.4791695
1378378378.38 0.4998131 0.0341008 -1.567331e-05 1.773116e-06 -2.217899e-05 -4.162212e-06 -0.8413554 -0.4615889
1388288288.29 0.4809577 -0.04996578 -2.955825e-05 2.386147e-05 1.502962e-05 -1.037168e-05 -0.8492243 -0.4436415
1398198198.2 0.4462159 -0.1288946 -8.879923e-06 -1.957188e-06 1.24123e-05 3.921928e-06 -0.8566578 -0.424606
1408108108.11 0.3939881 -0.1987393 -2.808268e-05 -1.141713e-05 -3.061723e-05 -7.384524e-06 -0.863674 -0.4063543
1418018018.02 0.3294978 -0.2574792 1.530566e-05 -6.780345e-06 -1.282884e-05 2.753863e-06 -0.8683236 -0.388026
1427927927.93 0.2536945 -0.3006164 -1.050286e-05 3.066835e-05 3.694245e-07 4.61647e-06 -0.8731937 -0.3706714
1437837837.84 0.1678744 -0.3263308 -1.190585e-05 1.477738e-05 -5.355139e-07 1.383787e-05 -0.877946 -0.3530821
1447747747.75 0.08272945 -0.3293667 6.801781e-06 -6.923412e-06 -2.867991e-05 4.434575e-06 -0.8826958 -0.3372317
1457657657.66 0.002294398 -0.3128217 6.53398e-06 -1.067361e-05 4.356697e-06 1.350834e-06 -0.8847638 -0.322005
1467567567.57 -0.07169627 -0.2793833 -1.77167e-06 -1.339864e-05 5.592589e-06 -1.239782e-05 -0.8871279 -0.3064774
1477477477.48 -0.1383132 -0.2297443 -1.857582e-05 -2.986173e-05 1.155365e-05 7.033078e-06 -0.8895048 -0.2914331
1487387387.39 -0.1930743 -0.1654864 9.154834e-06 -3.771451e-06 -5.640698e-06 6.991855e-06 -0.8930876 -0.2776105
1497297297.3 -0.2311295 -0.08879091 8.820507e-06 1.605643e-06 3.075128e-06 3.263363e-06 -0.8945454 -0.2626728
1507207207.21 -0.2486909 -0.004033929 -6.524749e-06 -1.152959e-05 2.610792e-06 3.637481e-06 -0.8973427 -0.2476033
1517117117.12 -0.247021 0.08168773 -1.665982e-05 3.512578e-06 -2.430494e-05 -7.418363e-06 -0.9009195 -0.2327772
1527027027.03 -0.2259829 0.1653575 -1.064378e-05 -1.041889e-07 -1.521928e-05 1.07852e-05 -0.9046637 -0.2172626
1536936936.94 -0.1861854 0.2419709 -2.641596e-06 3.990177e-06 1.558977e-05 -1.321895e-05 -0.902182 -0.1996464
1546846846.85 -0.1295012 0.3083415 -3.326477e-05 1.014228e-05 -4.603538e-06 4.924976e-07 -0.9121264 -0.1844457
1556756756.76 -0.05925514 0.3600639 -1.365991e-05 -2.741825e-05 9.260638e-06 4.932059e-06 -0.9156508 -0.1681319
1566666666.67 0.0208063 0.3958189 -4.852295e-05 1.844913e-06 -2.259513e-06 1.410342e-05 -0.9173838 -0.1516816
1576576576.58 0.1078436 0.4145976 2.611088e-06 4.105948e-06 -3.925898e-06 1.396366e-05 -0.9225608 -0.1367184
1586486486.49 0.1973951 0.4133558 1.03853e-05 3.076219e-05 4.483852e-06 1.967766e-06 -0.9239964 -0.1189148
1596396396.4 0.286934 0.3947283 -1.113434e-06 1.019663e-05 -6.797329e-06 1.716287e-06 -0.9286674 -0.104268
1606306306.31 0.3722104 0.3569011 1.795932e-05 -2.313411e-05 2.813896e-05 -3.377465e-06 -0.9310781 -0.08617884
1616216216.22 0.4497621 0.3021626 -2.864959e-06 1.412348e-05 1.785418e-05 -3.518293e-06 -0.9360301 -0.07144179
1626126126.13 0.5158838 0.2325411 4.896589e-06 2.257773e-05 4.981518e-06 -1.019074e-05 -0.9373131 -0.05269304
1636036036.04 0.5687222 0.1505987 3.268932e-06 1.385208e-05 3.373935e-06 -2.520919e-05 -0.9380946 -0.03284306
1645945945.95 0.6051531 0.05902771 3.768834e-05 7.820066e-06 -1.872959e-06 -4.725519e-06 -0.9405524 -0.01609232
1655855855.86 0.6251699 -0.03868138 -6.855357e-06 -6.569933e-06 2.556754e-05 -2.239023e-05 -0.9416717 0.002480172
1665765765.77 0.6270226 -0.1392587 1.732457e-05 -9.851706e-06 8.87024e-06 -1.116277e-05 -0.9428195 0.02065905
1675675675.68 0.6095041 -0.2425965 -8.084998e-06 -1.809107e-05 -2.009915e-05 4.665099e-06 -0.9433533 0.03901356
1685585585.59 0.5733307 -0.341684 1.454115e-05 -1.39113e-05 -7.266582e-07 4.905576e-06 -0.9429767 0.05859612
1695495495.5 0.5211902 -0.4316806 -1.187584e-05 -1.034442e-05 4.719283e-06 1.352786e-06 -0.9420661 0.07829922
1705405405.41 0.4546903 -0.510098 1.114319e-05 1.7676e-07 2.523556e-06 6.393409e-06 -0.9413704 0.09720697
1715315315.32 0.3751368 -0.5762076 2.521506e-05 -2.539734e-05 4.141701e-05 -3.118785e-05 -0.9404231 0.1157741
1725225225.23 0.2787068 -0.6305445 -1.030984e-06 -8.825599e-06 1.405803e-05 -2.541859e-05 -0.9384689 0.1337779
1735135135.14 0.1626532 -0.6698948 8.759333e-06 -1.797947e-05 -1.035235e-05 9.775235e-06 -0.9357345 0.1530616
1745045045.05 0.03460006 -0.6865963 -1.850786e-05 -1.457773e-05 1.531166e-05 -1.112791e-05 -0.9326269 0.1735777
1754954954.95 -0.09650219 -0.6769339 -6.9931e-06 -1.085749e-05 3.617247e-06 -2.338558e-05 -0.9285163 0.1934684
1764864864.86 -0.222392 -0.6415005 4.09688e-06 -5.677574e-07 1.607706e-05 -1.118269e-05 -0.9249998 0.2117732
1774774774.77 -0.3382504 -0.5830877 -1.247991e-05 4.51435e-06 1.156017e-05 7.039506e-06 -0.9210787 0.2308691
1784684684.68 -0.4396387 -0.5023788 1.239396e-05 5.239555e-06 -2.345919e-05 7.495244e-06 -0.9157121 0.2499645
1794594594.59 -0.5241338 -0.4041473 6.776447e-06 1.016908e-05 -4.28414e-06 -2.944666e-05 -0.9096151 0.2698093
1804504504.5 -0.587689 -0.2906565 2.554785e-06 -8.376403e-06 -1.387602e-06 9.292098e-06 -0.9040144 0.2889262
1814414414.41 -0.6291554 -0.1679934 8.730158e-06 1.342057e-05 9.144282e-06 2.688615e-06 -0.8978732 0.3070434
1824324324.32 -0.6464229 -0.03959542 3.740061e-06 2.079321e-06 3.187252e-05 -1.252629e-05 -0.8909157 0.3246118
1834234234.23 -0.6399525 0.09056061 -9.970699e-06 1.412534e-05 1.938144e-05 5.888618e-06 -0.8840499 0.3415067
1844144144.14 -0.6083018 0.2174767 4.633493e-06 4.07636e-06 -2.096942e-05 2.406957e-06 -0.8773461 0.3578908
1854054054.05 -0.5558987 0.3368984 4.020997e-06 -2.166153e-05 -6.923322e-06 -7.343441e-06 -0.86808 0.3756613
1863963963.96 -0.4803056 0.445267 -1.683925e-06 -9.786208e-06 -7.96708e-06 -1.944546e-05 -0.8604063 0.3923916
1873873873.87 -0.3872668 0.5379878 6.119135e-06 1.588304e-06 -2.49619e-05 8.007764e-06 -0.8513443 0.4080442
1883783783.78 -0.2777216 0.6115942 1.04905e-05 -9.570387e-06 -1.079261e-05 1.517485e-05 -0.8428119 0.423192
